!CSV A.01.01
!Keysight Technologies,N5247A,US56070668,A.10.47.06
!Date: Tuesday, November 12, 2019 09:03:01
!Source: Standard

!CW Freq: 28000000000 Hz
BEGIN CH1_DATA
Time(s),S11(DB),S11(DEG),S12(DB),S12(DEG),S21(DB),S21(DEG),S22(DB),S22(DEG)
0,-19.557001,-82.211426,-33.156445,-43.492554,-30.007662,60.360241,15.282341,39.218002
0.0044732521025641,-19.558783,-82.206215,-32.006229,-69.879852,-29.786882,54.942596,16.478321,19.750778
0.0089465042051282,-19.558594,-82.204033,-32.752239,-73.385101,-30.029175,55.740391,15.456393,21.156763
0.013419756307692,-19.55863,-82.216362,-36.393547,-77.829582,-30.787079,56.14497,11.749435,20.790895
0.017893008410256,-19.556004,-82.237534,-35.039223,-90.756096,-30.44183,53.527927,13.835263,8.2110949
0.022366260512821,-19.555428,-82.238358,-33.142136,-75.544273,-30.124334,56.072987,14.997898,24.714745
0.026839512615385,-19.552959,-82.239693,-30.174305,-78.78405,-29.388393,56.631264,17.946907,26.481949
0.031312764717949,-19.554703,-82.233284,-35.998791,-60.23074,-30.702415,60.278202,12.269302,44.367393
0.035786016820513,-19.55518,-82.222977,-32.526234,-85.399765,-30.05974,56.945194,15.655724,25.149944
0.040259268923077,-19.553972,-82.222824,-32.114201,-106.2485,-30.091978,52.671696,15.903803,9.4927349
0.044732521025641,-19.55459,-82.222816,-30.645309,-95.25946,-29.427824,55.898777,17.320446,21.933485
0.049205773128205,-19.554335,-82.25264,-32.954498,-128.66803,-30.310497,48.084145,15.443289,-6.7951894
0.053679025230769,-19.555378,-82.266167,-34.598911,-137.90334,-30.648808,47.791542,14.18079,-15.441296
0.058152277333333,-19.55537,-82.278915,-32.282188,-137.53308,-30.332506,46.891884,16.176937,-13.761703
0.062625529435897,-19.557621,-82.277817,-35.09095,-145.56433,-31.059601,47.229042,13.383758,-22.162813
0.067098781538462,-19.555372,-82.251526,-28.928814,-91.871117,-29.017353,58.630981,18.842165,33.542332
0.071572033641026,-19.557503,-82.259613,-31.430086,-177.10568,-31.479059,37.673191,16.946049,-49.25523
0.07604528574359,-19.5576,-82.230293,-33.979668,-148.60759,-30.947487,47.778934,14.185998,-20.888748
0.080518537846154,-19.556213,-82.219925,-33.932365,-142.55298,-30.808952,49.366848,13.911777,-13.761095
0.084991789948718,-19.554449,-82.208733,-31.848961,-122.47186,-30.084209,51.247578,16.139925,5.6706986
0.089465042051282,-19.553621,-82.21582,-32.780293,-156.48705,-30.733385,44.502518,15.692558,-23.453424
0.093938294153846,-19.552483,-82.237068,-31.14061,-157.8606,-30.541855,41.884071,16.716848,-27.211063
0.09841154625641,-19.552393,-82.255135,-31.340715,167.57048,-31.680075,36.295067,16.79986,-56.461414
0.10288479835897,-19.54768,-82.253075,-31.643194,-114.65878,-29.706387,54.00584,16.320187,16.071102
0.10735805046154,-19.546867,-82.265572,-28.901331,-134.09328,-29.326099,47.385178,19.032814,-0.35010907
0.1118313025641,-19.548929,-82.264244,-33.553078,-128.66045,-30.333481,51.159779,14.60815,3.9262054
0.11630455466667,-19.549007,-82.259605,-33.2285,-111.25444,-30.11125,56.040726,14.485347,21.564392
0.12077780676923,-19.550076,-82.249924,-33.042324,-117.75945,-30.076836,55.359867,15.138304,16.186075
0.12525105887179,-19.549572,-82.249901,-32.466946,-129.80644,-30.380402,51.688625,15.086979,2.3615634
0.12972431097436,-19.550049,-82.25029,-30.61614,-124.4641,-29.63047,52.258953,17.204967,9.531024
0.13419756307692,-19.549934,-82.240997,-30.233311,-113.9383,-29.620438,55.98,16.881731,19.679016
0.13867081517949,-19.551006,-82.24649,-32.077637,-142.31694,-30.230759,48.309914,15.792247,-8.3598814
0.14314406728205,-19.549614,-82.251785,-28.130131,-121.26276,-28.859276,52.026947,19.736387,13.261806
0.14761731938462,-19.550852,-82.248756,-30.822046,-110.81281,-29.698053,53.824062,17.009474,16.968372
0.15209057148718,-19.547894,-82.257446,-28.540833,-136.84744,-29.39728,45.561924,19.023811,-8.2901554
0.15656382358974,-19.54611,-82.2556,-29.062626,-137.34718,-29.40827,47.01506,18.706572,-4.743731
0.16103707569231,-19.547417,-82.25705,-30.283752,-144.52867,-29.876133,45.490715,17.897419,-12.128593
0.16551032779487,-19.546175,-82.244614,-30.358004,-131.78397,-29.646978,47.979141,17.670025,-3.9928932
0.16998357989744,-19.547266,-82.260437,-31.310894,-133.98827,-30.087072,48.94397,16.583887,-5.3302083
0.174456832,-19.546097,-82.239517,-30.990189,-83.648552,-29.672709,61.993938,16.470943,44.751022
0.17893008410256,-19.546793,-82.259109,-31.383627,-110.72903,-29.728384,53.722603,16.567247,15.458979
0.18340333620513,-19.546286,-82.263649,-29.886164,-123.65142,-29.297922,49.765213,18.382944,4.661397
0.18787658830769,-19.547558,-82.26371,-34.028713,-144.40488,-30.888918,48.384907,14.046707,-19.9144
0.19234984041026,-19.548079,-82.257202,-34.766785,-107.52592,-30.605209,55.244076,13.05313,15.676801
0.19682309251282,-19.547064,-82.251465,-31.546892,-92.743073,-29.741943,58.816002,16.497252,32.685341
0.20129634461538,-19.547686,-82.269035,-31.929287,-119.0642,-30.107641,51.799622,16.143461,4.3740029
0.20576959671795,-19.545897,-82.266182,-29.155634,-83.963928,-29.006357,61.554615,18.810101,39.459629
0.21024284882051,-19.54557,-82.271553,-29.830936,-88.009109,-29.330544,60.498676,18.085766,38.23687
0.21471610092308,-19.545403,-82.287086,-28.814817,-130.37769,-29.406969,45.666935,19.092726,-7.4219046
0.21918935302564,-19.545012,-82.291992,-29.282778,-131.79829,-29.186724,46.249607,18.732121,-6.1995926
0.22366260512821,-19.544783,-82.28756,-32.20293,-126.05762,-29.950642,48.734959,16.2862,-2.9226999
0.22813585723077,-19.540939,-82.283676,-24.302887,-121.63336,-27.320951,43.074242,23.937773,-0.47802195
0.23260910933333,-19.541862,-82.286896,-25.431217,-128.2093,-27.86018,41.819054,22.990688,-5.2193532
0.2370823614359,-19.5436,-82.260803,-30.013147,-88.274216,-29.344757,58.888847,17.733593,33.463997
0.24155561353846,-19.543575,-82.265579,-31.121321,-109.55084,-29.855604,54.150497,16.765684,13.177585
0.24602886564103,-19.54114,-82.251434,-24.816559,-94.420197,-27.525747,56.040298,22.880754,27.174404
0.25050211774359,-19.545403,-82.257584,-29.548891,-71.250427,-29.171854,63.349487,18.506546,47.894611
0.25497536984615,-19.545725,-82.262344,-31.67786,-77.567177,-29.927084,61.751011,15.755659,43.292183
0.25944862194872,-19.545633,-82.267937,-31.309175,-95.303299,-29.599895,56.93544,16.709717,23.624657
0.26392187405128,-19.547085,-82.263763,-28.759079,-81.041069,-28.954863,61.009129,18.765188,41.146309
0.26839512615385,-19.546818,-82.263535,-31.309332,-67.454453,-30.062391,64.301506,16.109632,52.163185
0.27286837825641,-19.543549,-82.269485,-26.837675,-105.5468,-28.466841,51.688839,20.547462,13.922739
0.27734163035897,-19.544489,-82.254723,-32.209061,-83.75177,-29.920607,58.003006,15.689244,31.319878
0.28181488246154,-19.54414,-82.255608,-32.875866,-100.45412,-29.977364,53.08717,15.209034,13.954842
0.2862881345641,-19.542809,-82.269669,-30.377504,-115.48376,-29.82933,50.006546,17.324514,2.9364223
0.29076138666667,-19.541115,-82.247513,-30.587292,-78.319969,-29.684521,59.857674,16.760658,41.935562
0.29523463876923,-19.540697,-82.256996,-28.839958,-89.339699,-28.966537,57.975731,18.892422,36.01601
0.29970789087179,-19.542953,-82.250679,-32.419254,-106.4834,-30.148756,53.513035,15.234592,14.691158
0.30418114297436,-19.543669,-82.240677,-33.878937,-88.782135,-30.635178,57.639252,13.162105,27.825266
0.30865439507692,-19.539608,-82.231766,-25.738905,-89.960915,-27.932247,58.496433,21.867382,31.902557
0.31312764717949,-19.541502,-82.245384,-28.833311,-116.56709,-29.178032,49.228737,18.850145,3.7309551
0.31760089928205,-19.543547,-82.222687,-29.221727,-63.082069,-29.532955,66.151642,17.726751,57.378658
0.32207415138462,-19.544136,-82.228523,-32.108994,-71.479637,-30.256556,62.304863,14.846969,50.212605
0.32654740348718,-19.54355,-82.230568,-34.212555,-63.384846,-30.734417,62.833179,12.815742,58.247169
0.33102065558974,-19.543697,-82.227791,-33.416443,-99.906609,-30.312929,55.145515,14.250194,20.123793
0.33549390769231,-19.544704,-82.216644,-32.569874,-59.867935,-30.292591,64.583725,14.589505,60.685467
0.33996715979487,-19.543144,-82.203766,-25.146172,-71.462517,-27.789715,67.349449,22.341497,51.464695
0.34444041189744,-19.545601,-82.231667,-29.807747,-123.01686,-29.692324,48.163139,17.970898,-2.6817508
0.348913664,-19.546131,-82.232819,-35.89455,-124.10873,-30.676952,51.864021,12.825923,-0.92136693
0.35338691610256,-19.544188,-82.225838,-29.730461,-109.94453,-29.491316,53.120197,17.872524,13.672928
0.35786016820513,-19.542568,-82.25396,-24.086939,-143.4183,-27.931826,36.729168,23.866991,-18.375891
0.36233342030769,-19.54657,-82.235832,-32.615555,-137.80852,-30.480282,47.058739,15.647713,-15.596879
0.36680667241026,-19.544916,-82.236526,-29.889513,-134.6031,-29.997154,45.126404,18.049486,-14.04279
0.37127992451282,-19.543602,-82.208069,-28.202421,-92.812729,-28.997475,56.43082,19.273468,27.381296
0.37575317661538,-19.544523,-82.209839,-26.565088,-93.753494,-28.172319,56.757893,21.306673,27.205332
0.38022642871795,-19.542912,-82.216713,-28.391033,-115.26346,-29.242687,49.570911,18.995043,4.0693603
0.38469968082051,-19.544577,-82.224861,-29.265532,-125.03533,-29.322622,47.064838,18.817589,-5.7484508
0.38917293292308,-19.546597,-82.22245,-35.823227,-120.30275,-30.97068,51.063484,12.628474,-4.5824804
0.39364618502564,-19.545563,-82.212341,-32.074509,-117.27612,-30.108242,49.980698,16.042952,0.98178399
0.39811943712821,-19.54323,-82.203545,-28.799246,-105.72322,-29.010269,51.591412,19.252838,12.77948
0.40259268923077,-19.544106,-82.211121,-31.860991,-76.473526,-30.015936,62.341473,15.982862,44.31345
0.40706594133333,-19.543425,-82.2425,-27.366676,-140.86609,-29.28594,39.694641,20.76053,-19.846254
0.4115391934359,-19.544807,-82.264076,-32.686741,-159.39958,-31.224579,43.317612,15.148631,-37.557953
0.41601244553846,-19.54357,-82.275177,-32.990227,-99.85672,-30.160482,54.452732,14.976042,18.092443
0.42048569764103,-19.545307,-82.283409,-28.405764,-96.291229,-29.121038,54.965126,18.868584,23.762079
0.42495894974359,-19.547998,-82.244225,-26.899292,-60.834084,-28.483349,69.835464,20.97529,61.588615
0.42943220184615,-19.551085,-82.24614,-31.813942,-97.529053,-29.926725,55.39822,15.865524,23.101635
0.43390545394872,-19.544218,-82.20993,-30.380665,-91.065445,-29.476778,58.081192,17.472532,30.065042
0.43837870605128,-19.54203,-82.225235,-35.517136,-65.361099,-30.926811,62.396866,11.711554,54.944401
0.44285195815385,-19.537964,-82.247612,-30.550997,-80.503387,-29.427332,59.87262,17.450928,36.717148
0.44732521025641,-19.54159,-82.27919,-34.448734,-99.522659,-30.432533,54.154827,13.682081,18.114
0.45179846235897,-19.543789,-82.276695,-33.266838,-106.01524,-30.014513,53.556854,15.404023,13.773211
0.45627171446154,-19.545061,-82.256668,-32.752895,-84.911133,-30.133595,58.661758,14.794846,30.094711
0.4607449665641,-19.543789,-82.219513,-25.324379,-70.013557,-27.95376,65.72818,22.041857,49.087311
0.46521821866667,-19.545387,-82.219421,-34.155434,-79.812202,-30.291702,58.746983,14.045138,36.955154
0.46969147076923,-19.541937,-82.221581,-32.462738,-94.351761,-30.112936,57.841805,15.428649,26.353342
0.47416472287179,-19.53874,-82.242958,-27.819633,-105.96982,-28.664392,52.797771,20.01581,15.759204
0.47863797497436,-19.541128,-82.214157,-23.52919,-34.33728,-27.855383,85.522263,24.379536,86.249649
0.48311122707692,-19.542309,-82.264259,-33.540707,-72.130783,-30.593788,61.250748,13.99754,46.223267
0.48758447917949,-19.547461,-82.251068,-35.432819,-60.003822,-31.005917,62.974285,11.770305,54.537418
0.49205773128205,-19.548584,-82.242729,-38.119038,-47.881287,-31.365553,63.062946,8.7428713,60.24078
0.49653098338462,-19.553415,-82.247162,-33.704929,-49.118313,-30.787668,64.593552,13.344892,61.386223
0.50100423548718,-19.555996,-82.236389,-37.680107,-62.639126,-31.108368,60.91901,9.9601545,45.548199
0.50547748758974,-19.558731,-82.25425,-37.134754,-51.808468,-31.263117,61.730778,9.7779846,55.153072
0.50995073969231,-19.560442,-82.283745,-37.209808,-50.610455,-31.313398,60.556717,9.3159018,55.893147
0.51442399179487,-19.559809,-82.299278,-37.4142,-58.263626,-31.218464,60.551514,9.4359426,50.259819
0.51889724389744,-19.559879,-82.300903,-37.209595,-47.303883,-31.349186,62.514393,9.611062,60.990723
0.523370496,-19.560143,-82.301529,-36.27504,-53.880665,-30.985012,60.320816,11.120341,51.347923
0.52784374810256,-19.559183,-82.281837,-38.227245,-33.712494,-31.494249,63.543667,8.3990097,72.858803
0.53231700020513,-19.556208,-82.282166,-34.963364,-51.907719,-30.745934,62.097847,11.863185,55.442989
0.53679025230769,-19.554914,-82.288994,-34.585037,-34.375393,-31.130917,66.20285,12.239598,75.051933
0.54126350441026,-19.553911,-82.30304,-36.307804,-39.870014,-31.197468,63.232792,10.458405,67.391884
0.54573675651282,-19.557285,-82.282959,-35.450794,-47.609085,-30.904104,63.230724,11.420316,58.147572
0.55021000861538,-19.554691,-82.276794,-36.228233,-61.836266,-31.05401,60.331676,10.64289,43.578716
0.55468326071795,-19.55698,-82.268135,-39.594185,-49.327251,-31.504173,61.065826,6.6894703,54.473831
0.55915651282051,-19.552336,-82.255943,-36.48975,-41.71093,-31.187689,63.305683,10.577261,66.767387
0.56362976492308,-19.553213,-82.27858,-40.278133,-38.582047,-31.85615,61.234844,6.0480304,68.756592
0.56810301702564,-19.552959,-82.274284,-35.8657,-39.734638,-31.18454,63.359512,11.095918,67.819031
0.57257626912821,-19.551754,-82.269005,-36.694717,-44.804718,-31.133894,62.261158,10.056932,60.327919
0.57704952123077,-19.54991,-82.278961,-36.998837,-35.532822,-31.514208,63.409962,9.5368395,72.922707
0.58152277333333,-19.545954,-82.291435,-37.206535,-33.732307,-31.402857,63.439117,9.0550461,74.827728
0.5859960254359,-19.542646,-82.290962,-37.639847,-44.390202,-31.58371,63.003952,8.8486881,65.728233
0.59046927753846,-19.544056,-82.311081,-39.82951,-36.003124,-31.64995,61.817043,6.3751106,71.185432
0.59494252964103,-19.546192,-82.303177,-37.062035,-37.577045,-31.412569,63.231495,9.176115,72.544632
0.59941578174359,-19.54977,-82.302139,-37.307335,-30.767872,-31.601551,64.28363,9.3919792,77.106155
0.60388903384615,-19.552895,-82.265228,-36.95013,-44.983093,-31.298981,62.144852,9.8924026,61.762825
0.60836228594872,-19.551622,-82.222824,-36.966194,-38.363785,-31.353506,63.598179,9.90872,72.088661
0.61283553805128,-19.549906,-82.225739,-37.234665,-39.973263,-31.392483,63.699635,9.6718397,68.55928
0.61730879015385,-19.549597,-82.219261,-37.770657,-31.608562,-31.54216,63.715195,8.6343155,77.125481
0.62178204225641,-19.548399,-82.214294,-38.500298,-28.357862,-31.791546,64.021561,8.1497507,83.112686
0.62625529435897,-19.546438,-82.226357,-36.374916,-38.521332,-31.221863,63.40126,10.260807,70.09774
0.63072854646154,-19.550011,-82.251312,-34.355358,-44.474167,-30.984457,63.787567,12.351098,66.400192
0.6352017985641,-19.552286,-82.263268,-35.860367,-45.856735,-31.16305,63.68261,11.032545,60.532749
0.63967505066667,-19.552105,-82.267838,-38.426571,-43.931492,-31.613436,61.862785,8.0762815,63.656769
0.64414830276923,-19.552975,-82.281624,-35.961052,-38.525677,-31.145229,62.943672,10.676179,68.717926
0.64862155487179,-19.552431,-82.291756,-36.021709,-44.977596,-31.222767,63.213612,10.643874,62.7915
0.65309480697436,-19.553003,-82.290718,-36.034405,-40.812798,-31.283882,64.236816,10.644472,69.195221
0.65756805907692,-19.552034,-82.277855,-35.341316,-55.52327,-30.862841,62.342854,12.108392,52.003311
0.66204131117949,-19.549036,-82.27552,-37.075539,-40.75972,-31.443432,63.434776,9.5949898,65.884216
0.66651456328205,-19.548954,-82.285027,-36.709778,-38.129719,-31.545675,63.780991,9.7419004,73.681137
0.67098781538462,-19.55065,-82.286606,-38.122009,-38.748486,-31.634209,62.898483,8.2695446,70.335175
0.67546106748718,-19.552197,-82.273331,-38.417557,-34.026608,-31.649183,61.183468,8.0834417,75.099579
0.67993431958974,-19.556274,-82.254585,-37.918587,-45.012787,-31.374035,59.542755,8.7246847,63.968697
0.68440757169231,-19.557678,-82.244125,-37.375927,-42.363762,-31.268719,59.549538,9.9995327,66.03701
0.68888082379487,-19.558329,-82.243477,-38.526386,-36.148838,-31.619335,58.786823,8.428895,71.18161
0.69335407589744,-19.558956,-82.248169,-38.136162,-36.577705,-31.565697,58.731651,8.7267847,71.359283
0.697827328,-19.559486,-82.242744,-38.037884,-45.698837,-31.348967,57.083576,9.4123869,61.453487
0.70230058010256,-19.561653,-82.240311,-39.009518,-52.564823,-31.224478,55.526253,8.9927683,52.445072
0.70677383220513,-19.562405,-82.237015,-38.275581,-47.428543,-31.305744,54.712311,9.3387718,60.752544
0.71124708430769,-19.561928,-82.228935,-37.487164,-40.193554,-31.408882,55.567562,9.6752539,68.269203
0.71572033641026,-19.561655,-82.225395,-39.322556,-37.615776,-31.747183,55.237862,7.5879803,76.098343
0.72019358851282,-19.560181,-82.231789,-42.422405,-28.399134,-32.078209,53.134163,3.4751954,81.702003
0.72466684061538,-19.560499,-82.228905,-42.876049,-33.265377,-31.990332,52.264915,2.9990463,75.42186
0.72914009271795,-19.559456,-82.190468,-42.120281,-31.447182,-31.916414,52.222836,3.6547194,80.000542
0.73361334482051,-19.559736,-82.184425,-41.18774,-48.099033,-31.770576,52.214542,5.3249135,62.966927
0.73808659692308,-19.559,-82.186646,-40.825962,-49.231297,-31.772285,52.660419,5.8176408,69.852715
0.74255984902564,-19.559248,-82.182579,-41.876751,-47.666374,-31.813335,51.1017,4.8786159,65.418808
0.74703310112821,-19.561398,-82.192261,-41.591145,-34.093914,-31.931936,51.814007,4.2142348,79.337372
0.75150635323077,-19.560404,-82.197769,-37.55619,-47.517513,-31.238653,53.053627,9.7571306,62.38018
0.75597960533333,-19.560558,-82.177414,-37.213264,-53.975361,-31.058969,52.681858,10.543513,55.603157
0.7604528574359,-19.561546,-82.178368,-36.330654,-50.057674,-30.966547,53.953861,10.983906,59.550644
0.76492610953846,-19.563065,-82.167374,-35.617306,-40.713516,-30.963781,55.728134,11.613013,68.093094
0.76939936164103,-19.562855,-82.188866,-37.724125,-48.996395,-31.300177,53.40358,9.357707,60.879375
0.77387261374359,-19.563595,-82.213127,-38.12645,-72.264519,-31.227659,50.786144,9.2524996,35.788639
0.77834586584615,-19.561184,-82.250351,-36.787334,-66.318558,-30.893517,51.830593,10.710157,42.495708
0.78281911794872,-19.562613,-82.281555,-34.559185,-73.711609,-30.639883,51.705349,12.84586,35.992882
0.78729237005128,-19.56251,-82.302979,-37.992073,-57.904419,-31.377853,52.723476,8.9383774,45.58868
0.79176562215385,-19.561108,-82.311813,-38.034203,-47.598713,-31.552328,54.711445,8.7799215,58.447651
0.79623887425641,-19.560534,-82.298897,-35.966671,-57.306133,-30.990427,54.836288,11.19347,50.115734
0.80071212635897,-19.559219,-82.284492,-36.588352,-60.494755,-30.937365,55.583603,10.94767,47.751938
0.80518537846154,-19.558151,-82.278587,-34.881268,-54.647259,-30.686579,57.135796,12.723905,52.673382
0.8096586305641,-19.555866,-82.28006,-37.496155,-44.188133,-31.34273,58.778458,9.4634838,62.138775
0.81413188266667,-19.554985,-82.267166,-34.167046,-44.97702,-30.757376,59.040047,12.511396,59.329311
0.81860513476923,-19.552307,-82.270981,-36.153461,-28.754612,-31.297876,61.445747,10.405508,77.194099
0.82307838687179,-19.549742,-82.28112,-36.290405,-47.979664,-30.988527,58.624054,10.616145,54.103935
0.82755163897436,-19.545244,-82.274269,-35.87669,-62.618114,-30.861385,56.931309,11.326824,41.272697
0.83202489107692,-19.541054,-82.277962,-36.368565,-57.259274,-31.143627,58.003716,10.352169,45.785431
0.83649814317949,-19.538433,-82.274582,-36.372959,-57.060062,-31.131645,58.765472,10.310791,47.373047
0.84097139528205,-19.537121,-82.293236,-36.493843,-83.541824,-30.740574,55.406487,11.448223,25.300104
0.84544464738462,-19.53529,-82.3013,-31.962149,-99.539978,-29.813169,50.952934,16.213907,7.7964988
0.84991789948718,-19.534702,-82.300514,-34.895218,-45.637489,-30.846348,63.167175,12.07406,62.22646
0.85439115158974,-19.534788,-82.299622,-33.70417,-68.398651,-30.402037,59.844921,13.353572,37.794121
0.85886440369231,-19.535067,-82.292328,-34.302357,-57.587784,-30.546677,60.473473,12.875033,48.570862
